Circuit: * C:\Users\adrik\Documents\ee308\lab1\output amplifier.asc

Warning: Multiple definitions of model "2scr375p" Type: BJT
Warning: Multiple definitions of model "bc857b" Type: BJT
Warning: Multiple definitions of model "bc847c" Type: BJT
Warning: Multiple definitions of model "bc847b" Type: BJT
Direct Newton iteration for .op point succeeded.
Semiconductor Device Operating Points:
                        --- Diodes ---
Name:      d1          d2
Model:   1n5817      1n5817
Id:      8.29e-03    8.29e-03
Vd:      1.98e-01    1.98e-01
Req:     4.27e+00    4.27e+00
CAP:     2.03e-10    2.03e-10

                        --- Bipolar Transistors ---
Name:       q1          q2          q6          q9          q3
Model:    2n3904      2n3904      2n3904      2n3906      2n3906
Ib:       6.20e-06    5.07e-06    1.73e-01    2.16e-11   -1.22e-03
Ic:       2.06e-03    1.67e-03    5.66e-02   -1.66e-11   -1.81e-01
Vbe:      6.72e-01    6.66e-01    4.32e+00    5.08e+00   -8.40e-01
Vbc:     -1.12e+01   -1.04e+01    4.28e+00    1.66e+01    6.19e+00
Vce:      1.18e+01    1.10e+01    4.35e-02   -1.15e+01   -7.03e+00
BetaDC:   3.32e+02    3.30e+02    3.27e-01   -7.66e-01    1.49e+02
Gm:       7.92e-02    6.44e-02    5.57e+00    2.65e-98    5.40e+00
Rpi:      4.17e+03    5.10e+03    6.46e+00    1.00e+12    2.12e+01
Rx:       2.00e+01    2.00e+01    2.00e+01    2.00e+01    2.00e+01
Ro:       5.40e+04    6.60e+04    8.88e-02    0.00e+00    5.85e+02
Cbe:      4.04e-11    3.52e-11    1.73e-08    5.08e-12    1.98e-09
Cbc:      1.61e-12    1.64e-12    6.54e-06    1.60e-12    2.16e-12
Cjs:      0.00e+00    0.00e+00    0.00e+00    0.00e+00    0.00e+00
BetaAC:   3.30e+02    3.28e+02    3.60e+01    2.65e-86    1.15e+02
Cbx:      0.00e+00    0.00e+00    0.00e+00    0.00e+00    0.00e+00
Ft:       3.00e+08    2.78e+08    1.35e+05    2.38e-02    4.32e+08


.step tol=0
.step tol=5e-11
.step tol=1e-10
.step tol=1.5e-10
.step tol=2e-10
.step tol=2.5e-10
.step tol=3e-10

Date: Fri Apr 10 21:57:33 2026
Total elapsed time: 0.314 seconds.

tnom = 27
temp = 27
method = trap
totiter = 13
traniter = 0
tranpoints = 0
accept = 0
rejected = 0
matrix size = 38
fillins = 38
solver = Normal
Avg thread counts: 16.0/0.0/16.0/1.7
Matrix Compiler1:     241 opcodes
Matrix Compiler2: 3.90 KB object code size
