Circuit: * C:\Users\pig\Documents\ee308\ee308\lab1\output amplifier.asc

Warning: Multiple definitions of model "2scr375p" Type: BJT
Warning: Multiple definitions of model "bc857b" Type: BJT
Warning: Multiple definitions of model "bc847c" Type: BJT
Warning: Multiple definitions of model "bc847b" Type: BJT
Direct Newton iteration for .op point succeeded.
Semiconductor Device Operating Points:
                        --- Diodes ---
Name:      d2          d1
Model:   1n4148      1n4148
Id:      4.85e-03    4.85e-03
Vd:      6.58e-01    6.58e-01
Req:     9.35e+00    9.35e+00
CAP:     2.15e-09    2.15e-09

                        --- Bipolar Transistors ---
Name:       q3          q9          q6          q2          q1
Model:    2n3906      2n3906      2n3904      2n3904      2n3904
Ib:      -2.19e-05   -1.21e-04    1.36e-09    1.98e-06    2.84e-06
Ic:      -4.85e-03   -2.41e-02    4.65e-07    6.62e-04    9.47e-04
Vbe:     -6.94e-01   -7.42e-01    4.54e-01    6.42e-01    6.51e-01
Vbc:      1.21e+01    5.12e+00   -1.27e+01   -1.15e+01   -1.13e+01
Vce:     -1.27e+01   -5.86e+00    1.32e+01    1.22e+01    1.20e+01
BetaDC:   2.22e+02    1.99e+02    3.41e+02    3.34e+02    3.33e+02
Gm:       1.85e-01    8.83e-01    1.80e-05    2.56e-02    3.65e-02
Rpi:      1.18e+03    2.14e+02    1.88e+07    1.30e+04    9.10e+03
Rx:       2.00e+01    2.00e+01    2.00e+01    2.00e+01    2.00e+01
Ro:       2.31e+04    4.37e+03    2.43e+08    1.68e+05    1.17e+05
Cbe:      8.10e-11    3.26e-10    1.08e-11    2.14e-11    2.53e-11
Cbc:      1.76e-12    2.28e-12    1.54e-12    1.59e-12    1.60e-12
Cjs:      0.00e+00    0.00e+00    0.00e+00    0.00e+00    0.00e+00
BetaAC:   2.19e+02    1.89e+02    3.38e+02    3.34e+02    3.32e+02
Cbx:      0.00e+00    0.00e+00    0.00e+00    0.00e+00    0.00e+00
Ft:       3.57e+08    4.28e+08    2.32e+05    1.77e+08    2.16e+08


Note: .fourier statements are only valid with a .tran command.
      No Fourier analysis performed.


Date: Mon Apr 13 15:34:21 2026
Total elapsed time: 0.115 seconds.

tnom = 27
temp = 27
method = trap
totiter = 8
traniter = 0
tranpoints = 0
accept = 0
rejected = 0
matrix size = 38
fillins = 40
solver = Normal
Matrix Compiler1:     250 opcodes
Matrix Compiler2: 3.91 KB object code size
