Circuit: * C:\Users\pig\Documents\ee308\ee308\lab1\output amplifier.asc

Warning: Multiple definitions of model "2scr375p" Type: BJT
Warning: Multiple definitions of model "bc857b" Type: BJT
Warning: Multiple definitions of model "bc847c" Type: BJT
Warning: Multiple definitions of model "bc847b" Type: BJT
Direct Newton iteration for .op point succeeded.
Semiconductor Device Operating Points:
                        --- Diodes ---
Name:      d2          d1
Model:   1n4148      1n4148
Id:      1.62e-02    1.62e-02
Vd:      7.20e-01    7.20e-01
Req:     2.79e+00    2.79e+00
CAP:     7.17e-09    7.17e-09

                        --- Bipolar Transistors ---
Name:       q3          q9          q6          q2          q1
Model:    2n3906      2n3906      2n3904      2n3904      2n3904
Ib:      -1.10e-03    1.99e-11    1.50e-01    6.95e-06    4.55e-06
Ic:      -1.66e-01   -1.62e-11    1.01e-01    2.23e-03    1.51e-03
Vbe:     -8.33e-01    3.67e+00    3.86e+00    6.74e-01    6.63e-01
Vbc:      5.50e+00    1.62e+01    3.80e+00   -7.49e+00   -1.12e+01
Vce:     -6.33e+00   -1.26e+01    5.28e-02    8.17e+00    1.18e+01
BetaDC:   1.51e+02   -8.15e-01    6.77e-01    3.21e+02    3.32e+02
Gm:       5.00e+00    9.20e-75    6.13e+00    8.57e-02    5.83e-02
Rpi:      2.36e+01    1.00e+12    6.75e+00    3.72e+03    5.68e+03
Rx:       2.00e+01    2.00e+01    2.00e+01    2.00e+01    2.00e+01
Ro:       6.36e+02    0.00e+00    1.01e-01    4.82e+04    7.35e+04
Cbe:      1.85e-09    5.57e-12    1.66e-08    4.27e-11    3.30e-11
Cbc:      2.23e-12    1.61e-12    5.64e-06    1.81e-12    1.61e-12
Cjs:      0.00e+00    0.00e+00    0.00e+00    0.00e+00    0.00e+00
BetaAC:   1.18e+02    9.20e-63    4.14e+01    3.19e+02    3.31e+02
Cbx:      0.00e+00    0.00e+00    0.00e+00    0.00e+00    0.00e+00
Ft:       4.31e+08    2.22e-02    1.72e+05    3.06e+08    2.68e+08



Date: Fri Apr 10 18:37:22 2026
Total elapsed time: 0.050 seconds.

tnom = 27
temp = 27
method = trap
totiter = 15
traniter = 0
tranpoints = 0
accept = 0
rejected = 0
matrix size = 38
fillins = 36
solver = Normal
Matrix Compiler1:     235 opcodes
Matrix Compiler2: 3.87 KB object code size
