Circuit: * C:\Users\pig\Documents\ee308\ee308\lab1 - Copy\output amplifier.asc

Warning: Multiple definitions of model "2scr375p" Type: BJT
Warning: Multiple definitions of model "bc857b" Type: BJT
Warning: Multiple definitions of model "bc847c" Type: BJT
Warning: Multiple definitions of model "bc847b" Type: BJT
Direct Newton iteration for .op point succeeded.
Semiconductor Device Operating Points:
                        --- Diodes ---
Name:      d4          d3          d2          d1
Model:   1n4148      1n4148      1n4148      1n4148
Id:      1.10e-03    2.41e-03    2.41e-03    1.09e-03
Vd:      5.89e-01    6.25e-01    6.25e-01    5.89e-01
Req:     4.12e+01    1.88e+01    1.88e+01    4.15e+01
CAP:     4.91e-10    1.07e-09    1.07e-09    4.87e-10

                        --- Bipolar Transistors ---
Name:       q4          q9          q3          q6          q2
Model:    2n3906      2n3906      2n3904      2n3904      2n3904
Ib:      -1.70e-05    3.27e-12    7.88e-06    1.58e-03    1.69e-06
Ic:      -3.99e-03   -3.85e-12    2.41e-03    6.70e-02    5.67e-04
Vbe:     -6.87e-01   -9.88e-02    6.78e-01    8.09e-01    6.38e-01
Vbc:      1.85e+01    3.37e+00   -2.45e+00    7.23e-01   -1.18e+01
Vce:     -1.91e+01   -3.47e+00    3.13e+00    8.64e-02    1.25e+01
BetaDC:   2.35e+02   -1.18e+00    3.06e+02    4.24e+01    3.35e+02
Gm:       1.53e-01    1.82e-11    9.25e-02    2.29e+00    2.19e-02
Rpi:      1.52e+03    9.19e+11    3.28e+03    8.97e+01    1.53e+04
Rx:       2.00e+01    2.00e+01    2.00e+01    2.00e+01    2.00e+01
Ro:       2.97e+04    2.19e+14    4.26e+04    5.93e+00    1.97e+05
Cbe:      6.95e-11    1.05e-11    4.51e-11    9.29e-10    2.00e-11
Cbc:      1.54e-12    2.56e-12    2.48e-12    5.00e-08    1.58e-12
Cjs:      0.00e+00    0.00e+00    0.00e+00    0.00e+00    0.00e+00
BetaAC:   2.33e+02    1.67e+01    3.04e+02    2.05e+02    3.35e+02
Cbx:      0.00e+00    0.00e+00    0.00e+00    0.00e+00    0.00e+00
Ft:       3.42e+08    2.22e-01    3.09e+08    7.14e+06    1.61e+08

Name:       q1
Model:    2n3904
Ib:       1.02e-05
Ic:       3.19e-03
Vbe:      6.84e-01
Vbc:     -5.61e+00
Vce:      6.30e+00
BetaDC:   3.14e+02
Gm:       1.22e-01
Rpi:      2.55e+03
Rx:       2.00e+01
Ro:       3.31e+04
Cbe:      5.57e-11
Cbc:      1.98e-12
Cjs:      0.00e+00
BetaAC:   3.12e+02
Cbx:      0.00e+00
Ft:       3.38e+08



Date: Fri Apr 10 18:35:34 2026
Total elapsed time: 0.053 seconds.

tnom = 27
temp = 27
method = trap
totiter = 8
traniter = 0
tranpoints = 0
accept = 0
rejected = 0
matrix size = 46
fillins = 40
solver = Normal
Matrix Compiler1:     289 opcodes
Matrix Compiler2: 4.71 KB object code size
