Circuit: * C:\Users\pig\Documents\ee308\lab1 - Copy\output amplifier.asc

Warning: Multiple definitions of model "2scr375p" Type: BJT
Warning: Multiple definitions of model "bc857b" Type: BJT
Warning: Multiple definitions of model "bc847c" Type: BJT
Warning: Multiple definitions of model "bc847b" Type: BJT
Direct Newton iteration for .op point succeeded.
Semiconductor Device Operating Points:
                        --- Diodes ---
Name:      d2          d1
Model:   1n4148      1n4148
Id:      1.43e-02    1.43e-02
Vd:      7.13e-01    7.13e-01
Req:     3.16e+00    3.16e+00
CAP:     6.33e-09    6.33e-09

                        --- Bipolar Transistors ---
Name:       q4          q3          q9          q5          q6
Model:    2n3906      2n3906      2n3906      2n3904      2n3904
Ib:      -7.69e-06   -6.92e-05   -4.52e-05    4.70e-05    3.61e-06
Ic:      -1.73e-03   -1.43e-02   -9.68e-03    1.44e-02    1.21e-03
Vbe:     -6.67e-01   -7.26e-01   -7.14e-01    7.26e-01    6.57e-01
Vbc:      1.31e+01    7.07e+00    9.49e+00   -5.40e+00   -1.20e+01
Vce:     -1.37e+01   -7.79e+00   -1.02e+01    6.13e+00    1.27e+01
BetaDC:   2.25e+02    2.07e+02    2.14e+02    3.06e+02    3.35e+02
Gm:       6.67e-02    5.37e-01    3.66e-01    5.38e-01    4.66e-02
Rpi:      3.36e+03    3.74e+02    5.72e+02    5.50e+02    7.17e+03
Rx:       2.00e+01    2.00e+01    2.00e+01    2.00e+01    2.00e+01
Ro:       6.53e+04    7.47e+03    1.13e+04    7.33e+03    9.27e+04
Cbe:      3.91e-11    2.04e-10    1.45e-10    2.02e-10    2.89e-11
Cbc:      1.72e-12    2.08e-12    1.90e-12    2.00e-12    1.57e-12
Cjs:      0.00e+00    0.00e+00    0.00e+00    0.00e+00    0.00e+00
BetaAC:   2.24e+02    2.01e+02    2.10e+02    2.96e+02    3.34e+02
Cbx:      0.00e+00    0.00e+00    0.00e+00    0.00e+00    0.00e+00
Ft:       2.60e+08    4.14e+08    3.98e+08    4.21e+08    2.44e+08

Name:       q2          q1
Model:    2n3904      2n3904
Ib:       1.88e-05    1.61e-05
Ic:       5.89e-03    5.12e-03
Vbe:      7.01e-01    6.97e-01
Vbc:     -6.13e+00   -6.95e+00
Vce:      6.83e+00    7.65e+00
BetaDC:   3.14e+02    3.17e+02
Gm:       2.25e-01    1.96e-01
Rpi:      1.38e+03    1.60e+03
Rx:       2.00e+01    2.00e+01
Ro:       1.80e+04    2.09e+04
Cbe:      9.16e-11    8.13e-11
Cbc:      1.92e-12    1.85e-12
Cjs:      0.00e+00    0.00e+00
BetaAC:   3.10e+02    3.13e+02
Cbx:      0.00e+00    0.00e+00
Ft:       3.82e+08    3.74e+08


Note: .fourier statements are only valid with a .tran command.
      No Fourier analysis performed.


Date: Mon Apr 13 21:08:36 2026
Total elapsed time: 0.107 seconds.

tnom = 27
temp = 27
method = trap
totiter = 7
traniter = 0
tranpoints = 0
accept = 0
rejected = 0
matrix size = 49
fillins = 58
solver = Normal
Matrix Compiler1:     353 opcodes
Matrix Compiler2: 5.23 KB object code size
