Circuit: * C:\Users\pig\Documents\ee308\lab1 - Copy\output amplifier.asc

Warning: Multiple definitions of model "2scr375p" Type: BJT
Warning: Multiple definitions of model "bc857b" Type: BJT
Warning: Multiple definitions of model "bc847c" Type: BJT
Warning: Multiple definitions of model "bc847b" Type: BJT
WARNING: Node N021 is floating.

WARNING: Less than two connections to node N021.  This node is used by C3.
Direct Newton iteration for .op point succeeded.
Semiconductor Device Operating Points:
                        --- Diodes ---
Name:      d2          d1
Model:   1n4148      1n4148
Id:      1.86e-03    1.86e-03
Vd:      6.13e-01    6.13e-01
Req:     2.44e+01    2.44e+01
CAP:     8.25e-10    8.25e-10

                        --- Bipolar Transistors ---
Name:       q4          q3          q9          q5          q6
Model:    2n3906      2n3906      2n3906      2n3904      2n3904
Ib:      -1.83e-06   -8.27e-06   -2.37e-04    6.53e-06   -1.34e-11
Ic:      -4.41e-04   -1.86e-03   -4.46e-02    2.09e-03    1.27e-10
Vbe:     -6.29e-01   -6.68e-01   -7.64e-01    6.73e-01    2.38e-01
Vbc:      2.07e+01    1.28e+01    4.32e+00   -7.48e+00   -1.40e+01
Vce:     -2.14e+01   -1.34e+01   -5.08e+00    8.15e+00    1.42e+01
BetaDC:   2.41e+02    2.25e+02    1.88e+02    3.21e+02   -9.50e+00
Gm:       1.70e-02    7.15e-02    1.57e+00    8.05e-02    4.39e-09
Rpi:      1.41e+04    3.13e+03    1.09e+02    3.96e+03    7.23e+10
Rx:       2.00e+01    2.00e+01    2.00e+01    2.00e+01    2.00e+01
Ro:       2.74e+05    6.07e+04    2.34e+03    5.13e+04    1.00e+12
Cbe:      2.13e-11    4.08e-11    5.70e-10    4.09e-11    9.07e-12
Cbc:      1.49e-12    1.73e-12    2.40e-12    1.81e-12    1.50e-12
Cjs:      0.00e+00    0.00e+00    0.00e+00    0.00e+00    0.00e+00
BetaAC:   2.41e+02    2.24e+02    1.72e+02    3.19e+02    3.17e+02
Cbx:      0.00e+00    0.00e+00    0.00e+00    0.00e+00    0.00e+00
Ft:       1.19e+08    2.67e+08    4.38e+08    3.00e+08    6.60e+01

Name:       q2          q1
Model:    2n3904      2n3904
Ib:       5.96e-06    3.73e-06
Ic:       1.96e-03    1.24e-03
Vbe:      6.70e-01    6.58e-01
Vbc:     -1.01e+01   -1.08e+01
Vce:      1.08e+01    1.14e+01
BetaDC:   3.29e+02    3.31e+02
Gm:       7.54e-02    4.77e-02
Rpi:      4.34e+03    6.93e+03
Rx:       2.00e+01    2.00e+01
Ro:       5.62e+04    8.96e+04
Cbe:      3.91e-11    2.92e-11
Cbc:      1.66e-12    1.62e-12
Cjs:      0.00e+00    0.00e+00
BetaAC:   3.27e+02    3.30e+02
Cbx:      0.00e+00    0.00e+00
Ft:       2.95e+08    2.46e+08


Note: .fourier statements are only valid with a .tran command.
      No Fourier analysis performed.


Date: Mon Apr 13 19:48:22 2026
Total elapsed time: 0.132 seconds.

tnom = 27
temp = 27
method = trap
totiter = 7
traniter = 0
tranpoints = 0
accept = 0
rejected = 0
matrix size = 49
fillins = 58
solver = Normal
Matrix Compiler1:     352 opcodes
Matrix Compiler2: 5.24 KB object code size
